T3AF0 000:009.890   SEGGER J-Link V8.20 Log File
T3AF0 000:009.992   DLL Compiled: Mar 12 2025 12:14:11
T3AF0 000:009.997   Logging started @ 2025-03-16 10:03
T3AF0 000:010.002   Process: C:\Keil_v5\UV4\UV4.exe
T3AF0 000:010.009 - 10.006ms 
T3AF0 000:010.016 JLINK_SetWarnOutHandler(...)
T3AF0 000:010.020 - 0.005ms 
T3AF0 000:010.026 JLINK_OpenEx(...)
T3AF0 000:014.469   Firmware: J-Link OB-STM32F072-CortexM compiled Jan  7 2019 14:09:37
T3AF0 000:015.093   Firmware: J-Link OB-STM32F072-CortexM compiled Jan  7 2019 14:09:37
T3AF0 000:015.263   Decompressing FW timestamp took 133 us
T3AF0 000:020.038   Hardware: V1.00
T3AF0 000:020.048   S/N: 762024901
T3AF0 000:020.054   OEM: SEGGER
T3AF0 000:020.061   Feature(s): GDB, RDI, FlashBP, FlashDL, JFlash
T3AF0 000:020.794   Bootloader: (FW returned invalid version)
T3AF0 000:021.915   TELNET listener socket opened on port 19021
T3AF0 000:022.071   WEBSRV WEBSRV_Init(): Starting webserver thread(s)
T3AF0 000:022.210   WEBSRV Webserver running on local port 19080
T3AF0 000:022.312   Looking for J-Link GUI Server exe at: C:\Keil_v5\ARM\Segger\JLinkGUIServer.exe
T3AF0 000:022.400   Looking for J-Link GUI Server exe at: C:\Program Files\SEGGER\JLink\JLinkGUIServer.exe
T3AF0 000:022.431   Forking J-Link GUI Server: C:\Program Files\SEGGER\JLink\JLinkGUIServer.exe
T3AF0 000:038.745   J-Link GUI Server info: "J-Link GUI server V8.20 "
T3AF0 000:041.744 - 31.713ms returns "O.K."
T3AF0 000:041.759 JLINK_GetEmuCaps()
T3AF0 000:041.766 - 0.005ms returns 0xB8EA5A33
T3AF0 000:041.772 JLINK_TIF_GetAvailable(...)
T3AF0 000:041.947 - 0.175ms 
T3AF0 000:041.956 JLINK_SetErrorOutHandler(...)
T3AF0 000:041.960 - 0.004ms 
T3AF0 000:041.974 JLINK_ExecCommand("ProjectFile = "C:\Users\Administrator\Desktop\Car_2025\project\mdk\JLinkSettings.ini"", ...). 
T3AF0 000:055.479   Ref file found at: C:\Keil_v5\ARM\Segger\JLinkDevices.ref
T3AF0 000:055.558   REF file references invalid XML file: C:\Program Files\SEGGER\JLink\JLinkDevices.xml
T3AF0 000:058.034   Flash bank @ 0x60000000: SFL: Parsing sectorization info from ELF file
T3AF0 000:058.051     FlashDevice.SectorInfo[0]: .SectorSize = 0x00010000, .SectorStartAddr = 0x00000000
T3AF0 000:070.559   Device "MIMXRT1064XXX6B" selected.
T3AF0 000:070.843 - 28.869ms returns 0x00
T3AF0 000:070.864 JLINK_ExecCommand("Device = MIMXRT1064DVL6B", ...). 
T3AF0 000:075.603   Flash bank @ 0x60000000: SFL: Parsing sectorization info from ELF file
T3AF0 000:075.615     FlashDevice.SectorInfo[0]: .SectorSize = 0x00010000, .SectorStartAddr = 0x00000000
T3AF0 000:088.289   Device "MIMXRT1064XXX6B" selected.
T3AF0 000:088.579 - 17.707ms returns 0x00
T3AF0 000:088.590 JLINK_ExecCommand("DisableConnectionTimeout", ...). 
T3AF0 000:088.604   ERROR: Unknown command
T3AF0 000:088.611 - 0.014ms returns 0x01
T3AF0 000:088.616 JLINK_GetHardwareVersion()
T3AF0 000:088.622 - 0.004ms returns 10000
T3AF0 000:088.627 JLINK_GetDLLVersion()
T3AF0 000:088.631 - 0.004ms returns 82000
T3AF0 000:088.637 JLINK_GetOEMString(...)
T3AF0 000:088.642 JLINK_GetFirmwareString(...)
T3AF0 000:088.647 - 0.004ms 
T3AF0 000:088.667 JLINK_GetDLLVersion()
T3AF0 000:088.672 - 0.004ms returns 82000
T3AF0 000:088.677 JLINK_GetCompileDateTime()
T3AF0 000:088.681 - 0.004ms 
T3AF0 000:088.689 JLINK_GetFirmwareString(...)
T3AF0 000:088.693 - 0.004ms 
T3AF0 000:088.702 JLINK_GetHardwareVersion()
T3AF0 000:088.706 - 0.004ms returns 10000
T3AF0 000:088.713 JLINK_GetSN()
T3AF0 000:088.718 - 0.004ms returns 762024901
T3AF0 000:088.725 JLINK_GetOEMString(...)
T3AF0 000:088.737 JLINK_TIF_Select(JLINKARM_TIF_SWD)
T3AF0 000:089.622 - 0.885ms returns 0x00
T3AF0 000:089.634 JLINK_HasError()
T3AF0 000:089.647 JLINK_SetSpeed(50000)
T3AF0 000:089.759 - 0.112ms 
T3AF0 000:089.770 JLINK_GetId()
T3AF0 000:090.008   InitTarget() start
T3AF0 000:090.018    J-Link Script File: Executing InitTarget()
T3AF0 000:091.943   InitTarget() end - Took 1.91ms
T3AF0 000:092.775   Found SW-DP with ID 0x0BD11477
T3AF0 000:094.593   Old FW that does not support reading DPIDR via DAP jobs
T3AF0 000:095.748   DPv0 detected
T3AF0 000:095.915   CoreSight SoC-400 or earlier
T3AF0 000:095.933   Scanning AP map to find all available APs
T3AF0 000:096.731   AP[1]: Stopped AP scan as end of AP map has been reached
T3AF0 000:096.745   AP[0]: AHB-AP (IDR: 0x04770041, ADDR: 0x00000000)
T3AF0 000:096.754   Iterating through AP map to find AHB-AP to use
T3AF0 000:098.019   AP[0]: Core found
T3AF0 000:098.032   AP[0]: AHB-AP ROM base: 0xE00FD000
T3AF0 000:098.593   CPUID register: 0x411FC271. Implementer code: 0x41 (ARM)
T3AF0 000:099.183   Cache: L1 I/D-cache present
T3AF0 000:099.200   Found Cortex-M7 r1p1, Little endian.
T3AF0 000:099.603   -- Max. mem block: 0x00002340
T3AF0 000:100.571   CPU_ReadMem(4 bytes @ 0xE000EDF0)
T3AF0 000:101.062   CPU_WriteMem(4 bytes @ 0xE000EDF0)
T3AF0 000:101.546   CPU_ReadMem(4 bytes @ 0xE0002000)
T3AF0 000:102.028   FPUnit: 8 code (BP) slots and 0 literal slots
T3AF0 000:102.040   CPU_ReadMem(4 bytes @ 0xE000EDFC)
T3AF0 000:102.485   CPU_WriteMem(4 bytes @ 0xE000EDFC)
T3AF0 000:103.025   CPU_ReadMem(4 bytes @ 0xE0001000)
T3AF0 000:103.461   CPU_WriteMem(4 bytes @ 0xE0001000)
T3AF0 000:103.989   CPU_ReadMem(4 bytes @ 0xE000ED88)
T3AF0 000:104.438   CPU_WriteMem(4 bytes @ 0xE000ED88)
T3AF0 000:104.968   CPU_ReadMem(4 bytes @ 0xE000ED88)
T3AF0 000:105.447   CPU_WriteMem(4 bytes @ 0xE000ED88)
T3AF0 000:105.949   CoreSight components:
T3AF0 000:105.962   ROMTbl[0] @ E00FD000
T3AF0 000:105.970   CPU_ReadMem(64 bytes @ 0xE00FD000)
T3AF0 000:107.131   CPU_ReadMem(32 bytes @ 0xE00FEFE0)
T3AF0 000:108.027   [0][0]: E00FE000 CID B105100D PID 000BB4C8 ROM Table
T3AF0 000:108.040   ROMTbl[1] @ E00FE000
T3AF0 000:108.047   CPU_ReadMem(64 bytes @ 0xE00FE000)
T3AF0 000:109.189   CPU_ReadMem(32 bytes @ 0xE00FFFE0)
T3AF0 000:110.033   [1][0]: E00FF000 CID B105100D PID 000BB4C7 ROM Table
T3AF0 000:110.047   ROMTbl[2] @ E00FF000
T3AF0 000:110.054   CPU_ReadMem(64 bytes @ 0xE00FF000)
T3AF0 000:111.213   CPU_ReadMem(32 bytes @ 0xE000EFE0)
T3AF0 000:111.950   [2][0]: E000E000 CID B105E00D PID 000BB00C SCS-M7
T3AF0 000:111.961   CPU_ReadMem(32 bytes @ 0xE0001FE0)
T3AF0 000:112.684   [2][1]: E0001000 CID B105E00D PID 000BB002 DWT
T3AF0 000:112.695   CPU_ReadMem(32 bytes @ 0xE0002FE0)
T3AF0 000:113.530   [2][2]: E0002000 CID B105E00D PID 000BB00E FPB-M7
T3AF0 000:113.541   CPU_ReadMem(32 bytes @ 0xE0000FE0)
T3AF0 000:114.353   [2][3]: E0000000 CID B105E00D PID 000BB001 ITM
T3AF0 000:114.365   CPU_ReadMem(32 bytes @ 0xE0041FE0)
T3AF0 000:115.205   [1][1]: E0041000 CID B105900D PID 001BB975 ETM-M7
T3AF0 000:115.217   CPU_ReadMem(32 bytes @ 0xE0042FE0)
T3AF0 000:116.017   [1][2]: E0042000 CID B105900D PID 004BB906 CTI
T3AF0 000:116.028   CPU_ReadMem(32 bytes @ 0xE0040FE0)
T3AF0 000:116.805   [0][1]: E0040000 CID B105900D PID 000BB9A9 TPIU-M7
T3AF0 000:116.816   CPU_ReadMem(32 bytes @ 0xE0043FE0)
T3AF0 000:117.788   [0][2]: E0043000 CID B105F00D PID 001BB101 TSG
T3AF0 000:117.800   CPU_WriteMem(4 bytes @ 0xE000ED84)
T3AF0 000:118.547   CPU_ReadMem(4 bytes @ 0xE000ED80)
T3AF0 000:119.330   I-Cache L1: 32 KB, 512 Sets, 32 Bytes/Line, 2-Way
T3AF0 000:119.341   CPU_WriteMem(4 bytes @ 0xE000ED84)
T3AF0 000:120.022   CPU_ReadMem(4 bytes @ 0xE000ED80)
T3AF0 000:120.768   D-Cache L1: 32 KB, 256 Sets, 32 Bytes/Line, 4-Way
T3AF0 000:121.299 - 31.528ms returns 0x0BD11477
T3AF0 000:121.312 JLINK_GetDLLVersion()
T3AF0 000:121.317 - 0.004ms returns 82000
T3AF0 000:121.325 JLINK_CORE_GetFound()
T3AF0 000:121.329 - 0.004ms returns 0xE0100FF
T3AF0 000:121.335 JLINK_GetDebugInfo(0x100 = JLINKARM_ROM_TABLE_ADDR_INDEX)
T3AF0 000:121.340   Value=0xE00FD000
T3AF0 000:121.346 - 0.011ms returns 0
T3AF0 000:121.413 JLINK_GetDebugInfo(0x100 = JLINKARM_ROM_TABLE_ADDR_INDEX)
T3AF0 000:121.423   Value=0xE00FD000
T3AF0 000:121.430 - 0.016ms returns 0
T3AF0 000:121.435 JLINK_GetDebugInfo(0x101 = JLINKARM_DEBUG_INFO_ETM_ADDR_INDEX)
T3AF0 000:121.440   Value=0xE0041000
T3AF0 000:121.446 - 0.010ms returns 0
T3AF0 000:121.451 JLINK_ReadMemEx(0xE0041FD0, 0x20 Bytes, Flags = 0x02000004)
T3AF0 000:121.499   CPU_ReadMem(32 bytes @ 0xE0041FD0)
T3AF0 000:122.509   Data:  04 00 00 00 00 00 00 00 00 00 00 00 00 00 00 00 ...
T3AF0 000:122.520 - 1.068ms returns 32 (0x20)
T3AF0 000:122.526 JLINK_GetDebugInfo(0x102 = JLINKARM_DEBUG_INFO_MTB_ADDR_INDEX)
T3AF0 000:122.531   Value=0x00000000
T3AF0 000:122.538 - 0.011ms returns 0
T3AF0 000:122.543 JLINK_GetDebugInfo(0x103 = JLINKARM_DEBUG_INFO_TPIU_ADDR_INDEX)
T3AF0 000:122.547   Value=0xE0040000
T3AF0 000:122.553 - 0.010ms returns 0
T3AF0 000:122.558 JLINK_GetDebugInfo(0x104 = JLINKARM_DEBUG_INFO_ITM_ADDR_INDEX)
T3AF0 000:122.562   Value=0xE0000000
T3AF0 000:122.568 - 0.010ms returns 0
T3AF0 000:122.573 JLINK_GetDebugInfo(0x105 = JLINKARM_DEBUG_INFO_DWT_ADDR_INDEX)
T3AF0 000:122.578   Value=0xE0001000
T3AF0 000:122.584 - 0.010ms returns 0
T3AF0 000:122.589 JLINK_GetDebugInfo(0x106 = JLINKARM_DEBUG_INFO_FPB_ADDR_INDEX)
T3AF0 000:122.593   Value=0xE0002000
T3AF0 000:122.600 - 0.011ms returns 0
T3AF0 000:122.605 JLINK_GetDebugInfo(0x107 = JLINKARM_DEBUG_INFO_NVIC_ADDR_INDEX)
T3AF0 000:122.609   Value=0xE000E000
T3AF0 000:122.615 - 0.010ms returns 0
T3AF0 000:122.620 JLINK_GetDebugInfo(0x10C = JLINKARM_DEBUG_INFO_DBG_ADDR_INDEX)
T3AF0 000:122.625   Value=0xE000EDF0
T3AF0 000:122.631 - 0.010ms returns 0
T3AF0 000:122.636 JLINK_GetDebugInfo(0x01 = Unknown)
T3AF0 000:122.640   Value=0x00000001
T3AF0 000:122.646 - 0.010ms returns 0
T3AF0 000:122.652 JLINK_ReadMemU32(0xE000ED00, 0x1 Items)
T3AF0 000:122.660   CPU_ReadMem(4 bytes @ 0xE000ED00)
T3AF0 000:123.390   Data:  71 C2 1F 41
T3AF0 000:123.400   Debug reg: CPUID
T3AF0 000:123.407 - 0.754ms returns 1 (0x1)
T3AF0 000:123.414 JLINK_GetDebugInfo(0x10F = JLINKARM_DEBUG_INFO_HAS_CORTEX_M_SECURITY_EXT_INDEX)
T3AF0 000:123.419   Value=0x00000000
T3AF0 000:123.425 - 0.011ms returns 0
T3AF0 000:123.430 JLINK_HasError()
T3AF0 000:123.435 JLINK_SetResetType(JLINKARM_CM3_RESET_TYPE_CORE)
T3AF0 000:123.440 - 0.004ms returns JLINKARM_CM3_RESET_TYPE_NORMAL
T3AF0 000:123.445 JLINK_Reset()
T3AF0 000:123.459   ResetTarget() start
T3AF0 000:123.466    J-Link Script File: Executing ResetTarget()
T3AF0 000:127.909   CPU_ReadMem(4 bytes @ 0xE0001038)
T3AF0 000:128.663   CPU_ReadMem(4 bytes @ 0xE0001030)
T3AF0 000:129.400   CPU_ReadMem(4 bytes @ 0xE0001034)
T3AF0 000:129.985   CPU_ReadMem(4 bytes @ 0xE0001048)
T3AF0 000:130.739   CPU_ReadMem(4 bytes @ 0xE0001040)
T3AF0 000:131.457   CPU_ReadMem(4 bytes @ 0xE0001044)
T3AF0 000:132.033   CPU_WriteMem(4 bytes @ 0xE000EDFC)
T3AF0 000:132.788   CPU_WriteMem(4 bytes @ 0xE0001030)
T3AF0 000:133.563   CPU_WriteMem(4 bytes @ 0xE0001040)
T3AF0 000:134.223   CPU_WriteMem(4 bytes @ 0xE0001034)
T3AF0 000:134.909   CPU_WriteMem(4 bytes @ 0xE0001044)
T3AF0 000:135.713   CPU_WriteMem(4 bytes @ 0xE0001038)
T3AF0 000:136.395   CPU_WriteMem(4 bytes @ 0xE0001048)
T3AF0 000:137.021   CPU_WriteMem(4 bytes @ 0xE000ED0C)
T3AF0 000:249.089   CPU_ReadMem(4 bytes @ 0xE000EDF0)
T3AF0 000:249.794   CPU_WriteMem(4 bytes @ 0xE0001030)
T3AF0 000:250.455   CPU_WriteMem(4 bytes @ 0xE0001034)
T3AF0 000:251.074   CPU_WriteMem(4 bytes @ 0xE0001038)
T3AF0 000:251.792   CPU_WriteMem(4 bytes @ 0xE0001040)
T3AF0 000:252.600   CPU_WriteMem(4 bytes @ 0xE0001044)
T3AF0 000:253.100   CPU_WriteMem(4 bytes @ 0xE0001048)
T3AF0 000:253.621   CPU_ReadMem(64 bytes @ 0x60000000)
T3AF0 000:254.804    -- Updating C cache (64 bytes @ 0x60000000)
T3AF0 000:254.815    -- Read from C cache (4 bytes @ 0x60000000)
T3AF0 000:254.824   CPU_ReadMem(64 bytes @ 0x70000000)
T3AF0 000:256.022    -- Updating C cache (64 bytes @ 0x70000000)
T3AF0 000:256.032    -- Read from C cache (4 bytes @ 0x70000000)
T3AF0 000:256.041   CPU_ReadMem(64 bytes @ 0x60001000)
T3AF0 000:257.063    -- Updating C cache (64 bytes @ 0x60001000)
T3AF0 000:257.073    -- Read from C cache (4 bytes @ 0x60001000)
T3AF0 000:257.083   CPU_ReadMem(64 bytes @ 0x60000400)
T3AF0 000:258.124    -- Updating C cache (64 bytes @ 0x60000400)
T3AF0 000:258.135    -- Read from C cache (4 bytes @ 0x60000400)
T3AF0 000:258.144   CPU_ReadMem(64 bytes @ 0x70001000)
T3AF0 000:259.222    -- Updating C cache (64 bytes @ 0x70001000)
T3AF0 000:259.230    -- Read from C cache (4 bytes @ 0x70001000)
T3AF0 000:259.238    -- Read from C cache (4 bytes @ 0x70001004)
T3AF0 000:259.246   CPU_ReadMem(64 bytes @ 0x70002000)
T3AF0 000:260.492    -- Updating C cache (64 bytes @ 0x70002000)
T3AF0 000:260.500    -- Read from C cache (4 bytes @ 0x70002004)
T3AF0 000:260.509   CPU_ReadMem(64 bytes @ 0x70000400)
T3AF0 000:261.677    -- Updating C cache (64 bytes @ 0x70000400)
T3AF0 000:261.685    -- Read from C cache (4 bytes @ 0x70000400)
T3AF0 000:261.693   CPU_ReadMem(4 bytes @ 0xE0002000)
T3AF0 000:262.148   CPU_ReadMem(4 bytes @ 0xE0002008)
T3AF0 000:262.664   CPU_ReadMem(4 bytes @ 0xE000200C)
T3AF0 000:263.088   CPU_ReadMem(4 bytes @ 0xE0002010)
T3AF0 000:263.548   CPU_ReadMem(4 bytes @ 0xE0002014)
T3AF0 000:264.043   CPU_WriteMem(4 bytes @ 0xE0002000)
T3AF0 000:264.547   CPU_WriteMem(4 bytes @ 0xE0002010)
T3AF0 000:265.061   CPU_WriteMem(4 bytes @ 0xE000EDF0)
T3AF0 000:265.578   CPU_ReadMem(4 bytes @ 0xE000EDF0)
T3AF0 000:265.988   CPU_ReadMem(4 bytes @ 0xE000EDF0)
T3AF0 000:266.446   CPU_ReadMem(4 bytes @ 0xE000EDF0)
T3AF0 000:266.986   CPU_ReadMem(4 bytes @ 0xE000EDF0)
T3AF0 000:267.482   CPU_ReadMem(4 bytes @ 0xE000EDF0)
T3AF0 000:267.934   CPU_ReadMem(4 bytes @ 0xE000EDF0)
T3AF0 000:268.428   CPU_WriteMem(4 bytes @ 0xE0002000)
T3AF0 000:268.982   CPU_WriteMem(4 bytes @ 0xE0002010)
T3AF0 000:269.566   ResetTarget() end - Took 146ms
T3AF0 000:269.579   Device specific reset executed.
T3AF0 000:274.033   AfterResetTarget() start
T3AF0 000:274.043    J-Link Script File: Executing AfterResetTarget()
T3AF0 000:274.050   CPU_ReadMem(4 bytes @ 0xE000ED90)
T3AF0 000:274.530   CPU_ReadMem(4 bytes @ 0xE000ED94)
T3AF0 000:274.956   CPU_ReadMem(2 bytes @ 0x400B8008)
T3AF0 000:275.428   CPU_WriteMem(2 bytes @ 0x400B8008)
T3AF0 000:275.946   CPU_ReadMem(2 bytes @ 0x400D0008)
T3AF0 000:276.439   CPU_WriteMem(2 bytes @ 0x400D0008)
T3AF0 000:277.013   AfterResetTarget() end - Took 2.96ms
T3AF0 000:277.025   CPU_WriteMem(4 bytes @ 0xE0002000)
T3AF0 000:277.676   CPU_ReadMem(4 bytes @ 0xE000EDFC)
T3AF0 000:278.103   CPU_ReadMem(4 bytes @ 0xE0001000)
T3AF0 000:278.600 - 155.154ms 
T3AF0 000:278.622 JLINK_HasError()
T3AF0 000:278.631 JLINK_ReadReg(R15 (PC))
T3AF0 000:278.638 - 0.009ms returns 0x70002414
T3AF0 000:278.643 JLINK_ReadReg(XPSR)
T3AF0 000:278.648 - 0.004ms returns 0x41000000
T3AF0 000:278.654 JLINK_Halt()
T3AF0 000:278.658 - 0.004ms returns 0x00
T3AF0 000:278.663 JLINK_ReadMemU32(0xE000EDF0, 0x1 Items)
T3AF0 000:278.670   CPU_ReadMem(4 bytes @ 0xE000EDF0)
T3AF0 000:279.122   Data:  03 00 03 00
T3AF0 000:279.132   Debug reg: DHCSR
T3AF0 000:279.138 - 0.475ms returns 1 (0x1)
T3AF0 000:279.149 JLINK_WriteU32(0xE000EDF0, 0xA05F0003)
T3AF0 000:279.154   Debug reg: DHCSR
T3AF0 000:279.452   CPU_WriteMem(4 bytes @ 0xE000EDF0)
T3AF0 000:279.982 - 0.835ms returns 0 (0x00000000)
T3AF0 000:279.993 JLINK_WriteU32(0xE000EDFC, 0x01000000)
T3AF0 000:279.998   Debug reg: DEMCR
T3AF0 000:280.008   CPU_WriteMem(4 bytes @ 0xE000EDFC)
T3AF0 000:280.504 - 0.510ms returns 0 (0x00000000)
T3AF0 000:280.528 JLINK_GetHWStatus(...)
T3AF0 000:280.705 - 0.176ms returns 0
T3AF0 000:280.729 JLINK_GetNumBPUnits(Type = 0xFFFFFF00)
T3AF0 000:280.734 - 0.005ms returns 0x08
T3AF0 000:280.739 JLINK_GetNumBPUnits(Type = 0xF0)
T3AF0 000:280.744 - 0.004ms returns 0x2000
T3AF0 000:280.748 JLINK_GetNumWPUnits()
T3AF0 000:280.753 - 0.004ms returns 4
T3AF0 000:280.764 JLINK_GetSpeed()
T3AF0 000:280.768 - 0.004ms returns 2000
T3AF0 000:280.839 JLINK_ReadMemU32(0xE000E004, 0x1 Items)
T3AF0 000:280.851   CPU_ReadMem(4 bytes @ 0xE000E004)
T3AF0 000:281.297   Data:  04 00 00 00
T3AF0 000:281.308 - 0.469ms returns 1 (0x1)
T3AF0 000:281.315 JLINK_ReadMemU32(0xE000E004, 0x1 Items)
T3AF0 000:281.322   CPU_ReadMem(4 bytes @ 0xE000E004)
T3AF0 000:281.801   Data:  04 00 00 00
T3AF0 000:281.811 - 0.496ms returns 1 (0x1)
T3AF0 000:281.818 JLINK_WriteMemEx(0xE0001000, 0x0000001C Bytes, Flags = 0x02000004)
T3AF0 000:281.829   Data:  01 00 00 00 00 00 00 00 00 00 00 00 00 00 00 00 ...
T3AF0 000:281.840   CPU_WriteMem(28 bytes @ 0xE0001000)
T3AF0 000:282.597 - 0.778ms returns 0x1C
T3AF0 000:282.615 JLINK_HasError()
T3AF0 000:282.621 JLINK_ReadReg(R15 (PC))
T3AF0 000:282.627 - 0.005ms returns 0x70002414
T3AF0 000:282.632 JLINK_ReadReg(XPSR)
T3AF0 000:282.636 - 0.004ms returns 0x41000000
T3AF0 000:285.455 JLINK_ReadMemEx(0xE0001004, 0x4 Bytes, Flags = 0x02000000)
T3AF0 000:285.467   Data:  00 00 00 00
T3AF0 000:285.473   Debug reg: DWT_CYCCNT
T3AF0 000:285.479 - 0.024ms returns 4 (0x4)
T3AF0 000:408.677 JLINK_HasError()
T3AF0 000:408.696 JLINK_SetResetType(JLINKARM_CM3_RESET_TYPE_CORE)
T3AF0 000:408.701 - 0.004ms returns JLINKARM_CM3_RESET_TYPE_CORE
T3AF0 000:408.706 JLINK_Reset()
T3AF0 000:408.727   ResetTarget() start
T3AF0 000:408.734    J-Link Script File: Executing ResetTarget()
T3AF0 000:408.744   CPU_ReadMem(4 bytes @ 0xE0001038)
T3AF0 000:409.270   CPU_ReadMem(4 bytes @ 0xE0001030)
T3AF0 000:409.836   CPU_ReadMem(4 bytes @ 0xE0001034)
T3AF0 000:410.461   CPU_ReadMem(4 bytes @ 0xE0001048)
T3AF0 000:410.946   CPU_ReadMem(4 bytes @ 0xE0001040)
T3AF0 000:411.505   CPU_ReadMem(4 bytes @ 0xE0001044)
T3AF0 000:411.973   CPU_WriteMem(4 bytes @ 0xE000EDFC)
T3AF0 000:412.589   CPU_WriteMem(4 bytes @ 0xE0001030)
T3AF0 000:413.096   CPU_WriteMem(4 bytes @ 0xE0001040)
T3AF0 000:413.586   CPU_WriteMem(4 bytes @ 0xE0001034)
T3AF0 000:414.111   CPU_WriteMem(4 bytes @ 0xE0001044)
T3AF0 000:414.575   CPU_WriteMem(4 bytes @ 0xE0001038)
T3AF0 000:415.035   CPU_WriteMem(4 bytes @ 0xE0001048)
T3AF0 000:415.498   CPU_WriteMem(4 bytes @ 0xE000ED0C)
T3AF0 000:527.347   CPU_ReadMem(4 bytes @ 0xE000EDF0)
T3AF0 000:528.057   CPU_WriteMem(4 bytes @ 0xE0001030)
T3AF0 000:528.745   CPU_WriteMem(4 bytes @ 0xE0001034)
T3AF0 000:529.212   CPU_WriteMem(4 bytes @ 0xE0001038)
T3AF0 000:529.906   CPU_WriteMem(4 bytes @ 0xE0001040)
T3AF0 000:530.560   CPU_WriteMem(4 bytes @ 0xE0001044)
T3AF0 000:531.229   CPU_WriteMem(4 bytes @ 0xE0001048)
T3AF0 000:531.891   CPU_ReadMem(64 bytes @ 0x60000000)
T3AF0 000:533.173    -- Updating C cache (64 bytes @ 0x60000000)
T3AF0 000:533.193    -- Read from C cache (4 bytes @ 0x60000000)
T3AF0 000:533.208   CPU_ReadMem(64 bytes @ 0x70000000)
T3AF0 000:534.442    -- Updating C cache (64 bytes @ 0x70000000)
T3AF0 000:534.462    -- Read from C cache (4 bytes @ 0x70000000)
T3AF0 000:534.475   CPU_ReadMem(64 bytes @ 0x60001000)
T3AF0 000:535.714    -- Updating C cache (64 bytes @ 0x60001000)
T3AF0 000:535.733    -- Read from C cache (4 bytes @ 0x60001000)
T3AF0 000:535.747   CPU_ReadMem(64 bytes @ 0x60000400)
T3AF0 000:537.076    -- Updating C cache (64 bytes @ 0x60000400)
T3AF0 000:537.096    -- Read from C cache (4 bytes @ 0x60000400)
T3AF0 000:537.109   CPU_ReadMem(64 bytes @ 0x70001000)
T3AF0 000:538.415    -- Updating C cache (64 bytes @ 0x70001000)
T3AF0 000:538.436    -- Read from C cache (4 bytes @ 0x70001000)
T3AF0 000:538.446    -- Read from C cache (4 bytes @ 0x70001004)
T3AF0 000:538.457   CPU_ReadMem(64 bytes @ 0x70002000)
T3AF0 000:539.588    -- Updating C cache (64 bytes @ 0x70002000)
T3AF0 000:539.640    -- Read from C cache (4 bytes @ 0x70002004)
T3AF0 000:539.655   CPU_ReadMem(64 bytes @ 0x70000400)
T3AF0 000:541.068    -- Updating C cache (64 bytes @ 0x70000400)
T3AF0 000:541.088    -- Read from C cache (4 bytes @ 0x70000400)
T3AF0 000:541.101   CPU_ReadMem(4 bytes @ 0xE0002000)
T3AF0 000:541.645   CPU_ReadMem(4 bytes @ 0xE0002008)
T3AF0 000:542.400   CPU_ReadMem(4 bytes @ 0xE000200C)
T3AF0 000:543.008   CPU_ReadMem(4 bytes @ 0xE0002010)
T3AF0 000:543.582   CPU_ReadMem(4 bytes @ 0xE0002014)
T3AF0 000:544.349   CPU_WriteMem(4 bytes @ 0xE0002000)
T3AF0 000:545.028   CPU_WriteMem(4 bytes @ 0xE0002010)
T3AF0 000:545.816   CPU_WriteMem(4 bytes @ 0xE000EDF0)
T3AF0 000:546.595   CPU_ReadMem(4 bytes @ 0xE000EDF0)
T3AF0 000:547.344   CPU_ReadMem(4 bytes @ 0xE000EDF0)
T3AF0 000:547.984   CPU_ReadMem(4 bytes @ 0xE000EDF0)
T3AF0 000:548.771   CPU_ReadMem(4 bytes @ 0xE000EDF0)
T3AF0 000:549.276   CPU_WriteMem(4 bytes @ 0xE0002000)
T3AF0 000:550.023   CPU_WriteMem(4 bytes @ 0xE0002010)
T3AF0 000:550.817   ResetTarget() end - Took 142ms
T3AF0 000:550.832   Device specific reset executed.
T3AF0 000:555.774   AfterResetTarget() start
T3AF0 000:555.787    J-Link Script File: Executing AfterResetTarget()
T3AF0 000:555.795   CPU_ReadMem(4 bytes @ 0xE000ED90)
T3AF0 000:556.566   CPU_ReadMem(4 bytes @ 0xE000ED94)
T3AF0 000:557.120   CPU_ReadMem(2 bytes @ 0x400B8008)
T3AF0 000:557.787   CPU_WriteMem(2 bytes @ 0x400B8008)
T3AF0 000:558.486   CPU_ReadMem(2 bytes @ 0x400D0008)
T3AF0 000:559.067   CPU_WriteMem(2 bytes @ 0x400D0008)
T3AF0 000:559.795   AfterResetTarget() end - Took 3.99ms
T3AF0 000:559.807   CPU_WriteMem(4 bytes @ 0xE0002000)
T3AF0 000:560.590   CPU_ReadMem(4 bytes @ 0xE000EDFC)
T3AF0 000:561.195   CPU_ReadMem(4 bytes @ 0xE0001000)
T3AF0 000:561.779 - 153.071ms 
T3AF0 000:561.967 JLINK_HasError()
T3AF0 000:561.976 JLINK_ReadReg(R15 (PC))
T3AF0 000:561.983 - 0.007ms returns 0x70002414
T3AF0 000:561.988 JLINK_ReadReg(XPSR)
T3AF0 000:561.992 - 0.004ms returns 0x41000000
T3AF0 000:562.370 JLINK_ReadMemEx(0x70002400, 0x3C Bytes, Flags = 0x02000000)
T3AF0 000:562.384   CPU_ReadMem(64 bytes @ 0x70002400)
T3AF0 000:563.568    -- Updating C cache (64 bytes @ 0x70002400)
T3AF0 000:563.577    -- Read from C cache (60 bytes @ 0x70002400)
T3AF0 000:563.585   Data:  DF F8 0C D0 00 F0 20 F9 00 48 00 47 79 12 00 80 ...
T3AF0 000:563.591 - 1.221ms returns 60 (0x3C)
T3AF0 000:563.597 JLINK_ReadMemEx(0x70002400, 0x2 Bytes, Flags = 0x02000000)
T3AF0 000:563.603    -- Read from C cache (2 bytes @ 0x70002400)
T3AF0 000:563.609   Data:  DF F8
T3AF0 000:563.615 - 0.017ms returns 2 (0x2)
T3AF0 000:563.665 JLINK_ReadMemEx(0x70002402, 0x2 Bytes, Flags = 0x02000000)
T3AF0 000:563.671    -- Read from C cache (2 bytes @ 0x70002402)
T3AF0 000:563.677   Data:  0C D0
T3AF0 000:563.683 - 0.018ms returns 2 (0x2)
T3AF0 000:563.692 JLINK_ReadMemEx(0x70002404, 0x3C Bytes, Flags = 0x02000000)
T3AF0 000:563.698    -- Read from C cache (60 bytes @ 0x70002404)
T3AF0 000:563.704   Data:  00 F0 20 F9 00 48 00 47 79 12 00 80 D8 4F 01 20 ...
T3AF0 000:563.710 - 0.018ms returns 60 (0x3C)
T3AF0 000:563.715 JLINK_ReadMemEx(0x70002404, 0x2 Bytes, Flags = 0x02000000)
T3AF0 000:563.720    -- Read from C cache (2 bytes @ 0x70002404)
T3AF0 000:563.726   Data:  00 F0
T3AF0 000:563.732 - 0.016ms returns 2 (0x2)
T3AF0 000:563.737 JLINK_ReadMemEx(0x70002406, 0x2 Bytes, Flags = 0x02000000)
T3AF0 000:563.741    -- Read from C cache (2 bytes @ 0x70002406)
T3AF0 000:563.747   Data:  20 F9
T3AF0 000:563.753 - 0.016ms returns 2 (0x2)
T3AF0 000:563.759 JLINK_ReadMemEx(0x70002408, 0x3C Bytes, Flags = 0x02000000)
T3AF0 000:563.765   CPU_ReadMem(64 bytes @ 0x70002440)
T3AF0 000:565.026    -- Updating C cache (64 bytes @ 0x70002440)
T3AF0 000:565.043    -- Read from C cache (60 bytes @ 0x70002408)
T3AF0 000:565.051   Data:  00 48 00 47 79 12 00 80 D8 4F 01 20 11 48 12 49 ...
T3AF0 000:565.058 - 1.298ms returns 60 (0x3C)
T3AF0 000:565.066 JLINK_ReadMemEx(0x70002408, 0x2 Bytes, Flags = 0x02000000)
T3AF0 000:565.073    -- Read from C cache (2 bytes @ 0x70002408)
T3AF0 000:565.078   Data:  00 48
T3AF0 000:565.084 - 0.018ms returns 2 (0x2)
T3AF0 000:565.091 JLINK_ReadMemEx(0x7000240A, 0x2 Bytes, Flags = 0x02000000)
T3AF0 000:565.096    -- Read from C cache (2 bytes @ 0x7000240A)
T3AF0 000:565.102   Data:  00 47
T3AF0 000:565.108 - 0.016ms returns 2 (0x2)
T3AF0 000:565.114 JLINK_ReadMemEx(0x7000240A, 0x2 Bytes, Flags = 0x02000000)
T3AF0 000:565.119    -- Read from C cache (2 bytes @ 0x7000240A)
T3AF0 000:565.125   Data:  00 47
T3AF0 000:565.131 - 0.016ms returns 2 (0x2)
T3AF0 000:565.136 JLINK_ReadMemEx(0x7000240C, 0x3C Bytes, Flags = 0x02000000)
T3AF0 000:565.141    -- Read from C cache (60 bytes @ 0x7000240C)
T3AF0 000:565.147   Data:  79 12 00 80 D8 4F 01 20 11 48 12 49 01 60 12 48 ...
T3AF0 000:565.153 - 0.017ms returns 60 (0x3C)
T3AF0 000:565.165 JLINK_ReadMemEx(0x7000240C, 0x2 Bytes, Flags = 0x02000000)
T3AF0 000:565.170    -- Read from C cache (2 bytes @ 0x7000240C)
T3AF0 000:565.176   Data:  79 12
T3AF0 000:565.182 - 0.016ms returns 2 (0x2)
T3AF0 000:565.232 JLINK_ReadMemEx(0x70002410, 0x3C Bytes, Flags = 0x02000000)
T3AF0 000:565.238    -- Read from C cache (60 bytes @ 0x70002410)
T3AF0 000:565.245   Data:  D8 4F 01 20 11 48 12 49 01 60 12 48 01 68 41 F0 ...
T3AF0 000:565.251 - 0.019ms returns 60 (0x3C)
T3AF0 000:565.256 JLINK_ReadMemEx(0x70002410, 0x2 Bytes, Flags = 0x02000000)
T3AF0 000:565.260    -- Read from C cache (2 bytes @ 0x70002410)
T3AF0 000:565.266   Data:  D8 4F
T3AF0 000:565.272 - 0.016ms returns 2 (0x2)
T3AF0 000:565.277 JLINK_ReadMemEx(0x70002412, 0x2 Bytes, Flags = 0x02000000)
T3AF0 000:565.282    -- Read from C cache (2 bytes @ 0x70002412)
T3AF0 000:565.288   Data:  01 20
T3AF0 000:565.294 - 0.016ms returns 2 (0x2)
T3AF0 000:565.314 JLINK_ReadMemEx(0x70002412, 0x2 Bytes, Flags = 0x02000000)
T3AF0 000:565.320    -- Read from C cache (2 bytes @ 0x70002412)
T3AF0 000:565.326   Data:  01 20
T3AF0 000:565.331 - 0.017ms returns 2 (0x2)
T3AF0 000:565.337 JLINK_ReadMemEx(0x70002414, 0x3C Bytes, Flags = 0x02000000)
T3AF0 000:565.341    -- Read from C cache (60 bytes @ 0x70002414)
T3AF0 000:565.348   Data:  11 48 12 49 01 60 12 48 01 68 41 F0 04 01 01 60 ...
T3AF0 000:565.354 - 0.017ms returns 60 (0x3C)
T3AF0 000:565.359 JLINK_ReadMemEx(0x70002414, 0x2 Bytes, Flags = 0x02000000)
T3AF0 000:565.364    -- Read from C cache (2 bytes @ 0x70002414)
T3AF0 000:565.369   Data:  11 48
T3AF0 000:565.375 - 0.016ms returns 2 (0x2)
T3AF0 000:565.383 JLINK_ReadMemEx(0x70002414, 0x3C Bytes, Flags = 0x02000000)
T3AF0 000:565.388    -- Read from C cache (60 bytes @ 0x70002414)
T3AF0 000:565.395   Data:  11 48 12 49 01 60 12 48 01 68 41 F0 04 01 01 60 ...
T3AF0 000:565.401 - 0.017ms returns 60 (0x3C)
T3AF0 000:565.406 JLINK_ReadMemEx(0x70002414, 0x2 Bytes, Flags = 0x02000000)
T3AF0 000:565.411    -- Read from C cache (2 bytes @ 0x70002414)
T3AF0 000:565.416   Data:  11 48
T3AF0 000:565.422 - 0.016ms returns 2 (0x2)
T3AF0 000:565.427 JLINK_ReadMemEx(0x70002416, 0x2 Bytes, Flags = 0x02000000)
T3AF0 000:565.432    -- Read from C cache (2 bytes @ 0x70002416)
T3AF0 000:565.438   Data:  12 49
T3AF0 000:565.444 - 0.016ms returns 2 (0x2)
T3AF0 000:565.451 JLINK_ReadMemEx(0x70002416, 0x2 Bytes, Flags = 0x02000000)
T3AF0 000:565.456    -- Read from C cache (2 bytes @ 0x70002416)
T3AF0 000:565.462   Data:  12 49
T3AF0 000:565.468 - 0.017ms returns 2 (0x2)
T3AF0 000:565.473 JLINK_ReadMemEx(0x70002418, 0x3C Bytes, Flags = 0x02000000)
T3AF0 000:565.478    -- Read from C cache (60 bytes @ 0x70002418)
T3AF0 000:565.485   Data:  01 60 12 48 01 68 41 F0 04 01 01 60 10 48 01 68 ...
T3AF0 000:565.490 - 0.017ms returns 60 (0x3C)
T3AF0 000:565.495 JLINK_ReadMemEx(0x70002418, 0x2 Bytes, Flags = 0x02000000)
T3AF0 000:565.500    -- Read from C cache (2 bytes @ 0x70002418)
T3AF0 000:565.506   Data:  01 60
T3AF0 000:565.511 - 0.016ms returns 2 (0x2)
T3AF0 000:565.519 JLINK_ReadMemEx(0x70002418, 0x3C Bytes, Flags = 0x02000000)
T3AF0 000:565.524    -- Read from C cache (60 bytes @ 0x70002418)
T3AF0 000:565.530   Data:  01 60 12 48 01 68 41 F0 04 01 01 60 10 48 01 68 ...
T3AF0 000:565.536 - 0.017ms returns 60 (0x3C)
T3AF0 000:565.541 JLINK_ReadMemEx(0x70002418, 0x2 Bytes, Flags = 0x02000000)
T3AF0 000:565.546    -- Read from C cache (2 bytes @ 0x70002418)
T3AF0 000:565.552   Data:  01 60
T3AF0 000:565.557 - 0.016ms returns 2 (0x2)
T3AF0 000:565.562 JLINK_ReadMemEx(0x7000241A, 0x2 Bytes, Flags = 0x02000000)
T3AF0 000:565.567    -- Read from C cache (2 bytes @ 0x7000241A)
T3AF0 000:565.573   Data:  12 48
T3AF0 000:565.579 - 0.016ms returns 2 (0x2)
T3AF0 000:565.586 JLINK_ReadMemEx(0x7000241A, 0x2 Bytes, Flags = 0x02000000)
T3AF0 000:565.591    -- Read from C cache (2 bytes @ 0x7000241A)
T3AF0 000:565.597   Data:  12 48
T3AF0 000:565.603 - 0.016ms returns 2 (0x2)
T3AF0 000:565.608 JLINK_ReadMemEx(0x7000241C, 0x3C Bytes, Flags = 0x02000000)
T3AF0 000:565.614    -- Read from C cache (60 bytes @ 0x7000241C)
T3AF0 000:565.622   Data:  01 68 41 F0 04 01 01 60 10 48 01 68 C0 F2 00 01 ...
T3AF0 000:565.628 - 0.020ms returns 60 (0x3C)
T3AF0 000:565.632 JLINK_ReadMemEx(0x7000241C, 0x2 Bytes, Flags = 0x02000000)
T3AF0 000:565.637    -- Read from C cache (2 bytes @ 0x7000241C)
T3AF0 000:565.643   Data:  01 68
T3AF0 000:565.649 - 0.016ms returns 2 (0x2)
T3AF0 000:565.656 JLINK_ReadMemEx(0x7000241C, 0x3C Bytes, Flags = 0x02000000)
T3AF0 000:565.661    -- Read from C cache (60 bytes @ 0x7000241C)
T3AF0 000:565.668   Data:  01 68 41 F0 04 01 01 60 10 48 01 68 C0 F2 00 01 ...
T3AF0 000:565.674 - 0.017ms returns 60 (0x3C)
T3AF0 000:565.679 JLINK_ReadMemEx(0x7000241C, 0x2 Bytes, Flags = 0x02000000)
T3AF0 000:565.684    -- Read from C cache (2 bytes @ 0x7000241C)
T3AF0 000:565.689   Data:  01 68
T3AF0 000:565.695 - 0.016ms returns 2 (0x2)
T3AF0 000:565.700 JLINK_ReadMemEx(0x7000241E, 0x2 Bytes, Flags = 0x02000000)
T3AF0 000:565.705    -- Read from C cache (2 bytes @ 0x7000241E)
T3AF0 000:565.711   Data:  41 F0
T3AF0 000:565.716 - 0.016ms returns 2 (0x2)
T3AF0 001:879.122 JLINK_ReadMemEx(0x7000241E, 0x2 Bytes, Flags = 0x02000000)
T3AF0 001:879.144    -- Read from C cache (2 bytes @ 0x7000241E)
T3AF0 001:879.151   Data:  41 F0
T3AF0 001:879.158 - 0.037ms returns 2 (0x2)
T3AF0 001:879.164 JLINK_ReadMemEx(0x70002420, 0x3C Bytes, Flags = 0x02000000)
T3AF0 001:879.170    -- Read from C cache (60 bytes @ 0x70002420)
T3AF0 001:879.177   Data:  04 01 01 60 10 48 01 68 C0 F2 00 01 4F F0 07 02 ...
T3AF0 001:879.183 - 0.019ms returns 60 (0x3C)
T3AF0 001:879.189 JLINK_ReadMemEx(0x70002420, 0x2 Bytes, Flags = 0x02000000)
T3AF0 001:879.194    -- Read from C cache (2 bytes @ 0x70002420)
T3AF0 001:879.200   Data:  04 01
T3AF0 001:879.206 - 0.017ms returns 2 (0x2)
T3AF0 002:348.496 JLINK_HasError()
T3AF0 002:348.511 JLINK_ReadReg(R0)
T3AF0 002:348.910 - 0.398ms returns 0x70002415
T3AF0 002:348.917 JLINK_ReadReg(R1)
T3AF0 002:348.922 - 0.004ms returns 0x20203AB8
T3AF0 002:348.927 JLINK_ReadReg(R2)
T3AF0 002:348.932 - 0.004ms returns 0x70002415
T3AF0 002:348.936 JLINK_ReadReg(R3)
T3AF0 002:348.941 - 0.004ms returns 0x000090F0
T3AF0 002:348.945 JLINK_ReadReg(R4)
T3AF0 002:348.950 - 0.004ms returns 0x70002000
T3AF0 002:348.954 JLINK_ReadReg(R5)
T3AF0 002:348.958 - 0.004ms returns 0x20203A70
T3AF0 002:348.963 JLINK_ReadReg(R6)
T3AF0 002:348.968 - 0.004ms returns 0xAE3FF7C0
T3AF0 002:348.972 JLINK_ReadReg(R7)
T3AF0 002:348.977 - 0.004ms returns 0x000000F0
T3AF0 002:348.984 JLINK_ReadReg(R8)
T3AF0 002:348.988 - 0.006ms returns 0x00200300
T3AF0 002:348.993 JLINK_ReadReg(R9)
T3AF0 002:348.997 - 0.004ms returns 0x00000000
T3AF0 002:349.002 JLINK_ReadReg(R10)
T3AF0 002:349.006 - 0.004ms returns 0x00000000
T3AF0 002:349.011 JLINK_ReadReg(R11)
T3AF0 002:349.016 - 0.004ms returns 0x400F8000
T3AF0 002:349.020 JLINK_ReadReg(R12)
T3AF0 002:349.024 - 0.004ms returns 0x000001FE
T3AF0 002:349.029 JLINK_ReadReg(R13 (SP))
T3AF0 002:349.034 - 0.004ms returns 0x20014FD8
T3AF0 002:349.038 JLINK_ReadReg(R14)
T3AF0 002:349.043 - 0.004ms returns 0x00215329
T3AF0 002:349.048 JLINK_ReadReg(R15 (PC))
T3AF0 002:349.052 - 0.004ms returns 0x70002414
T3AF0 002:349.057 JLINK_ReadReg(XPSR)
T3AF0 002:349.061 - 0.004ms returns 0x41000000
T3AF0 002:349.066 JLINK_ReadReg(MSP)
T3AF0 002:349.070 - 0.004ms returns 0x20014FD8
T3AF0 002:349.075 JLINK_ReadReg(PSP)
T3AF0 002:349.079 - 0.004ms returns 0x20014FD8
T3AF0 002:349.084 JLINK_ReadReg(CFBP)
T3AF0 002:349.088 - 0.004ms returns 0x00000000
T3AF0 002:349.093 JLINK_ReadReg(FPSCR)
T3AF0 002:355.841 - 6.746ms returns 0x00000000
T3AF0 002:355.851 JLINK_ReadReg(FPS0)
T3AF0 002:355.857 - 0.005ms returns 0x00000000
T3AF0 002:355.862 JLINK_ReadReg(FPS1)
T3AF0 002:355.866 - 0.004ms returns 0x00000000
T3AF0 002:355.871 JLINK_ReadReg(FPS2)
T3AF0 002:355.876 - 0.004ms returns 0x00000000
T3AF0 002:355.880 JLINK_ReadReg(FPS3)
T3AF0 002:355.885 - 0.004ms returns 0x00000000
T3AF0 002:355.926 JLINK_ReadReg(FPS4)
T3AF0 002:355.933 - 0.007ms returns 0x00000000
T3AF0 002:355.938 JLINK_ReadReg(FPS5)
T3AF0 002:355.942 - 0.004ms returns 0x00000000
T3AF0 002:355.947 JLINK_ReadReg(FPS6)
T3AF0 002:355.951 - 0.004ms returns 0x00000000
T3AF0 002:355.956 JLINK_ReadReg(FPS7)
T3AF0 002:355.960 - 0.004ms returns 0x00000000
T3AF0 002:355.965 JLINK_ReadReg(FPS8)
T3AF0 002:355.970 - 0.004ms returns 0x00000000
T3AF0 002:355.974 JLINK_ReadReg(FPS9)
T3AF0 002:355.979 - 0.004ms returns 0x00000000
T3AF0 002:355.983 JLINK_ReadReg(FPS10)
T3AF0 002:355.988 - 0.004ms returns 0x00000000
T3AF0 002:355.993 JLINK_ReadReg(FPS11)
T3AF0 002:355.997 - 0.004ms returns 0x00000000
T3AF0 002:356.002 JLINK_ReadReg(FPS12)
T3AF0 002:356.006 - 0.004ms returns 0x00000000
T3AF0 002:356.011 JLINK_ReadReg(FPS13)
T3AF0 002:356.015 - 0.004ms returns 0x00000000
T3AF0 002:356.020 JLINK_ReadReg(FPS14)
T3AF0 002:356.024 - 0.004ms returns 0x00000000
T3AF0 002:356.029 JLINK_ReadReg(FPS15)
T3AF0 002:356.033 - 0.004ms returns 0xFFFFFFFF
T3AF0 002:356.038 JLINK_ReadReg(FPS16)
T3AF0 002:356.042 - 0.004ms returns 0x00000000
T3AF0 002:356.047 JLINK_ReadReg(FPS17)
T3AF0 002:356.052 - 0.004ms returns 0x00000000
T3AF0 002:356.056 JLINK_ReadReg(FPS18)
T3AF0 002:356.061 - 0.004ms returns 0x00000000
T3AF0 002:356.065 JLINK_ReadReg(FPS19)
T3AF0 002:356.070 - 0.004ms returns 0x00000000
T3AF0 002:356.075 JLINK_ReadReg(FPS20)
T3AF0 002:356.079 - 0.004ms returns 0x00000000
T3AF0 002:356.084 JLINK_ReadReg(FPS21)
T3AF0 002:356.088 - 0.004ms returns 0x00000000
T3AF0 002:356.093 JLINK_ReadReg(FPS22)
T3AF0 002:356.097 - 0.004ms returns 0x00000000
T3AF0 002:356.102 JLINK_ReadReg(FPS23)
T3AF0 002:356.106 - 0.004ms returns 0x00000000
T3AF0 002:356.111 JLINK_ReadReg(FPS24)
T3AF0 002:356.115 - 0.004ms returns 0x00000000
T3AF0 002:356.120 JLINK_ReadReg(FPS25)
T3AF0 002:356.124 - 0.004ms returns 0x00000000
T3AF0 002:356.129 JLINK_ReadReg(FPS26)
T3AF0 002:356.133 - 0.004ms returns 0x00000000
T3AF0 002:356.138 JLINK_ReadReg(FPS27)
T3AF0 002:356.142 - 0.004ms returns 0x00000000
T3AF0 002:356.147 JLINK_ReadReg(FPS28)
T3AF0 002:356.152 - 0.004ms returns 0x00000000
T3AF0 002:356.156 JLINK_ReadReg(FPS29)
T3AF0 002:356.161 - 0.004ms returns 0x00000000
T3AF0 002:356.166 JLINK_ReadReg(FPS30)
T3AF0 002:356.170 - 0.004ms returns 0x00000000
T3AF0 002:356.175 JLINK_ReadReg(FPS31)
T3AF0 002:356.179 - 0.004ms returns 0xFFFFFFFF
T3AF0 002:358.054 JLINK_ReadMemEx(0x400AC044, 0x4 Bytes, Flags = 0x02000000)
T3AF0 002:358.068   CPU_ReadMem(4 bytes @ 0x400AC044)
T3AF0 002:358.736   Data:  AF AA AA AA
T3AF0 002:358.746 - 0.692ms returns 4 (0x4)
T3AF0 002:358.801 JLINK_WriteMemEx(0x400AC044, 0x00000004 Bytes, Flags = 0x02000000)
T3AF0 002:358.806   Data:  55 FA AF 55
T3AF0 002:358.989   CPU_WriteMem(4 bytes @ 0x400AC044)
T3AF0 002:359.662 - 0.861ms returns 0x4
T3AF0 002:359.674 JLINK_ReadMemEx(0x400AC040, 0x4 Bytes, Flags = 0x02000000)
T3AF0 002:359.683   CPU_ReadMem(4 bytes @ 0x400AC040)
T3AF0 002:360.326   Data:  07 00 20 00
T3AF0 002:360.337 - 0.662ms returns 4 (0x4)
T3AF0 002:360.347 JLINK_WriteMemEx(0x400AC040, 0x00000004 Bytes, Flags = 0x02000000)
T3AF0 002:360.351   Data:  07 00 20 00
T3AF0 002:360.361   CPU_WriteMem(4 bytes @ 0x400AC040)
T3AF0 002:360.994 - 0.647ms returns 0x4
T3AF0 002:481.831 JLINK_ReadMemEx(0x401F4490, 0x4 Bytes, Flags = 0x02000000)
T3AF0 002:481.854   CPU_ReadMem(4 bytes @ 0x401F4490)
T3AF0 002:482.611   Data:  00 94 00 00
T3AF0 002:482.622 - 0.791ms returns 4 (0x4)
T3AF0 002:482.676 JLINK_ReadMemEx(0x40080004, 0x4 Bytes, Flags = 0x02000000)
T3AF0 002:482.684   CPU_ReadMem(4 bytes @ 0x40080004)
T3AF0 002:483.132   Data:  9C A2 1B 12
T3AF0 002:483.143 - 0.467ms returns 4 (0x4)
T3AF0 002:483.191 JLINK_WriteMemEx(0x40080004, 0x00000004 Bytes, Flags = 0x02000000)
T3AF0 002:483.196   Data:  9C A2 1B 12
T3AF0 002:483.208   CPU_WriteMem(4 bytes @ 0x40080004)
T3AF0 002:483.834 - 0.643ms returns 0x4
T3AF0 002:483.847 JLINK_ReadMemEx(0x401F4480, 0x4 Bytes, Flags = 0x02000000)
T3AF0 002:483.855   CPU_ReadMem(4 bytes @ 0x401F4480)
T3AF0 002:484.631   Data:  00 00 00 00
T3AF0 002:484.642 - 0.795ms returns 4 (0x4)
T3AF0 002:506.364 JLINK_ReadMemEx(0x70002000, 0x4 Bytes, Flags = 0x02000000)
T3AF0 002:506.382    -- Read from C cache (4 bytes @ 0x70002000)
T3AF0 002:506.390   Data:  D8 4F 01 20
T3AF0 002:506.396 - 0.032ms returns 4 (0x4)
T3AF0 002:506.404 JLINK_HasError()
T3AF0 002:506.411 JLINK_WriteReg(R13 (SP), 0x20014FD8)
T3AF0 002:506.424 - 0.012ms returns 0
T3AF0 002:506.430 JLINK_HasError()
T3AF0 002:506.435 JLINK_ReadReg(R0)
T3AF0 002:506.440 - 0.004ms returns 0x70002415
T3AF0 002:506.444 JLINK_ReadReg(R1)
T3AF0 002:506.449 - 0.004ms returns 0x20203AB8
T3AF0 002:506.454 JLINK_ReadReg(R2)
T3AF0 002:506.458 - 0.004ms returns 0x70002415
T3AF0 002:506.463 JLINK_ReadReg(R3)
T3AF0 002:506.467 - 0.004ms returns 0x000090F0
T3AF0 002:506.472 JLINK_ReadReg(R4)
T3AF0 002:506.476 - 0.004ms returns 0x70002000
T3AF0 002:506.481 JLINK_ReadReg(R5)
T3AF0 002:506.486 - 0.004ms returns 0x20203A70
T3AF0 002:506.490 JLINK_ReadReg(R6)
T3AF0 002:506.495 - 0.004ms returns 0xAE3FF7C0
T3AF0 002:506.499 JLINK_ReadReg(R7)
T3AF0 002:506.504 - 0.004ms returns 0x000000F0
T3AF0 002:506.508 JLINK_ReadReg(R8)
T3AF0 002:506.513 - 0.004ms returns 0x00200300
T3AF0 002:506.518 JLINK_ReadReg(R9)
T3AF0 002:506.522 - 0.004ms returns 0x00000000
T3AF0 002:506.526 JLINK_ReadReg(R10)
T3AF0 002:506.531 - 0.004ms returns 0x00000000
T3AF0 002:506.536 JLINK_ReadReg(R11)
T3AF0 002:506.540 - 0.004ms returns 0x400F8000
T3AF0 002:506.545 JLINK_ReadReg(R12)
T3AF0 002:506.549 - 0.004ms returns 0x000001FE
T3AF0 002:506.554 JLINK_ReadReg(R13 (SP))
T3AF0 002:506.558 - 0.004ms returns 0x20014FD8
T3AF0 002:506.563 JLINK_ReadReg(R14)
T3AF0 002:506.567 - 0.004ms returns 0x00215329
T3AF0 002:506.572 JLINK_ReadReg(R15 (PC))
T3AF0 002:506.577 - 0.004ms returns 0x70002414
T3AF0 002:506.582 JLINK_ReadReg(XPSR)
T3AF0 002:506.586 - 0.004ms returns 0x41000000
T3AF0 002:506.591 JLINK_ReadReg(MSP)
T3AF0 002:506.595 - 0.004ms returns 0x20014FD8
T3AF0 002:506.600 JLINK_ReadReg(PSP)
T3AF0 002:506.604 - 0.004ms returns 0x20014FD8
T3AF0 002:506.609 JLINK_ReadReg(CFBP)
T3AF0 002:506.613 - 0.004ms returns 0x00000000
T3AF0 002:506.618 JLINK_ReadReg(FPSCR)
T3AF0 002:506.622 - 0.004ms returns 0x00000000
T3AF0 002:506.627 JLINK_ReadReg(FPS0)
T3AF0 002:506.632 - 0.004ms returns 0x00000000
T3AF0 002:506.636 JLINK_ReadReg(FPS1)
T3AF0 002:506.641 - 0.004ms returns 0x00000000
T3AF0 002:506.646 JLINK_ReadReg(FPS2)
T3AF0 002:506.650 - 0.004ms returns 0x00000000
T3AF0 002:506.655 JLINK_ReadReg(FPS3)
T3AF0 002:506.659 - 0.004ms returns 0x00000000
T3AF0 002:506.664 JLINK_ReadReg(FPS4)
T3AF0 002:506.668 - 0.004ms returns 0x00000000
T3AF0 002:506.673 JLINK_ReadReg(FPS5)
T3AF0 002:506.677 - 0.004ms returns 0x00000000
T3AF0 002:506.682 JLINK_ReadReg(FPS6)
T3AF0 002:506.686 - 0.004ms returns 0x00000000
T3AF0 002:506.691 JLINK_ReadReg(FPS7)
T3AF0 002:506.695 - 0.004ms returns 0x00000000
T3AF0 002:506.700 JLINK_ReadReg(FPS8)
T3AF0 002:506.704 - 0.004ms returns 0x00000000
T3AF0 002:506.709 JLINK_ReadReg(FPS9)
T3AF0 002:506.714 - 0.004ms returns 0x00000000
T3AF0 002:506.718 JLINK_ReadReg(FPS10)
T3AF0 002:506.722 - 0.004ms returns 0x00000000
T3AF0 002:506.727 JLINK_ReadReg(FPS11)
T3AF0 002:506.732 - 0.004ms returns 0x00000000
T3AF0 002:506.736 JLINK_ReadReg(FPS12)
T3AF0 002:506.741 - 0.004ms returns 0x00000000
T3AF0 002:506.745 JLINK_ReadReg(FPS13)
T3AF0 002:506.750 - 0.004ms returns 0x00000000
T3AF0 002:506.755 JLINK_ReadReg(FPS14)
T3AF0 002:506.759 - 0.004ms returns 0x00000000
T3AF0 002:506.764 JLINK_ReadReg(FPS15)
T3AF0 002:506.768 - 0.004ms returns 0xFFFFFFFF
T3AF0 002:506.773 JLINK_ReadReg(FPS16)
T3AF0 002:506.777 - 0.004ms returns 0x00000000
T3AF0 002:506.782 JLINK_ReadReg(FPS17)
T3AF0 002:506.786 - 0.004ms returns 0x00000000
T3AF0 002:506.791 JLINK_ReadReg(FPS18)
T3AF0 002:506.795 - 0.004ms returns 0x00000000
T3AF0 002:506.800 JLINK_ReadReg(FPS19)
T3AF0 002:506.804 - 0.004ms returns 0x00000000
T3AF0 002:506.809 JLINK_ReadReg(FPS20)
T3AF0 002:506.856 - 0.047ms returns 0x00000000
T3AF0 002:506.862 JLINK_ReadReg(FPS21)
T3AF0 002:506.866 - 0.004ms returns 0x00000000
T3AF0 002:506.871 JLINK_ReadReg(FPS22)
T3AF0 002:506.876 - 0.004ms returns 0x00000000
T3AF0 002:506.880 JLINK_ReadReg(FPS23)
T3AF0 002:506.885 - 0.004ms returns 0x00000000
T3AF0 002:506.889 JLINK_ReadReg(FPS24)
T3AF0 002:506.894 - 0.004ms returns 0x00000000
T3AF0 002:506.898 JLINK_ReadReg(FPS25)
T3AF0 002:506.903 - 0.004ms returns 0x00000000
T3AF0 002:506.908 JLINK_ReadReg(FPS26)
T3AF0 002:506.912 - 0.004ms returns 0x00000000
T3AF0 002:506.917 JLINK_ReadReg(FPS27)
T3AF0 002:506.921 - 0.004ms returns 0x00000000
T3AF0 002:506.926 JLINK_ReadReg(FPS28)
T3AF0 002:506.930 - 0.004ms returns 0x00000000
T3AF0 002:506.935 JLINK_ReadReg(FPS29)
T3AF0 002:506.939 - 0.004ms returns 0x00000000
T3AF0 002:506.944 JLINK_ReadReg(FPS30)
T3AF0 002:506.948 - 0.004ms returns 0x00000000
T3AF0 002:506.953 JLINK_ReadReg(FPS31)
T3AF0 002:506.957 - 0.004ms returns 0xFFFFFFFF
T3AF0 002:506.963 JLINK_ReadMemEx(0x70002004, 0x4 Bytes, Flags = 0x02000000)
T3AF0 002:506.969    -- Read from C cache (4 bytes @ 0x70002004)
T3AF0 002:506.975   Data:  15 24 00 70
T3AF0 002:506.982 - 0.018ms returns 4 (0x4)
T3AF0 002:506.987 JLINK_HasError()
T3AF0 002:506.992 JLINK_WriteReg(R15 (PC), 0x70002414)
T3AF0 002:506.997 - 0.004ms returns 0
T3AF0 002:507.002 JLINK_HasError()
T3AF0 002:507.007 JLINK_ReadReg(R0)
T3AF0 002:507.012 - 0.004ms returns 0x70002415
T3AF0 002:507.016 JLINK_ReadReg(R1)
T3AF0 002:507.021 - 0.004ms returns 0x20203AB8
T3AF0 002:507.026 JLINK_ReadReg(R2)
T3AF0 002:507.031 - 0.004ms returns 0x70002415
T3AF0 002:507.035 JLINK_ReadReg(R3)
T3AF0 002:507.040 - 0.004ms returns 0x000090F0
T3AF0 002:507.044 JLINK_ReadReg(R4)
T3AF0 002:507.049 - 0.004ms returns 0x70002000
T3AF0 002:507.054 JLINK_ReadReg(R5)
T3AF0 002:507.058 - 0.004ms returns 0x20203A70
T3AF0 002:507.063 JLINK_ReadReg(R6)
T3AF0 002:507.067 - 0.004ms returns 0xAE3FF7C0
T3AF0 002:507.072 JLINK_ReadReg(R7)
T3AF0 002:507.076 - 0.004ms returns 0x000000F0
T3AF0 002:507.081 JLINK_ReadReg(R8)
T3AF0 002:507.085 - 0.004ms returns 0x00200300
T3AF0 002:507.090 JLINK_ReadReg(R9)
T3AF0 002:507.094 - 0.004ms returns 0x00000000
T3AF0 002:507.099 JLINK_ReadReg(R10)
T3AF0 002:507.103 - 0.004ms returns 0x00000000
T3AF0 002:507.108 JLINK_ReadReg(R11)
T3AF0 002:507.112 - 0.004ms returns 0x400F8000
T3AF0 002:507.117 JLINK_ReadReg(R12)
T3AF0 002:507.121 - 0.004ms returns 0x000001FE
T3AF0 002:507.126 JLINK_ReadReg(R13 (SP))
T3AF0 002:507.130 - 0.004ms returns 0x20014FD8
T3AF0 002:507.135 JLINK_ReadReg(R14)
T3AF0 002:507.140 - 0.004ms returns 0x00215329
T3AF0 002:507.144 JLINK_ReadReg(R15 (PC))
T3AF0 002:507.149 - 0.004ms returns 0x70002414
T3AF0 002:507.154 JLINK_ReadReg(XPSR)
T3AF0 002:507.158 - 0.004ms returns 0x41000000
T3AF0 002:507.163 JLINK_ReadReg(MSP)
T3AF0 002:507.167 - 0.004ms returns 0x20014FD8
T3AF0 002:507.172 JLINK_ReadReg(PSP)
T3AF0 002:507.176 - 0.004ms returns 0x20014FD8
T3AF0 002:507.181 JLINK_ReadReg(CFBP)
T3AF0 002:507.185 - 0.004ms returns 0x00000000
T3AF0 002:507.190 JLINK_ReadReg(FPSCR)
T3AF0 002:507.194 - 0.004ms returns 0x00000000
T3AF0 002:507.199 JLINK_ReadReg(FPS0)
T3AF0 002:507.203 - 0.004ms returns 0x00000000
T3AF0 002:507.208 JLINK_ReadReg(FPS1)
T3AF0 002:507.212 - 0.004ms returns 0x00000000
T3AF0 002:507.217 JLINK_ReadReg(FPS2)
T3AF0 002:507.221 - 0.004ms returns 0x00000000
T3AF0 002:507.226 JLINK_ReadReg(FPS3)
T3AF0 002:507.230 - 0.004ms returns 0x00000000
T3AF0 002:507.235 JLINK_ReadReg(FPS4)
T3AF0 002:507.240 - 0.004ms returns 0x00000000
T3AF0 002:507.244 JLINK_ReadReg(FPS5)
T3AF0 002:507.248 - 0.004ms returns 0x00000000
T3AF0 002:507.253 JLINK_ReadReg(FPS6)
T3AF0 002:507.258 - 0.004ms returns 0x00000000
T3AF0 002:507.262 JLINK_ReadReg(FPS7)
T3AF0 002:507.267 - 0.004ms returns 0x00000000
T3AF0 002:507.271 JLINK_ReadReg(FPS8)
T3AF0 002:507.276 - 0.004ms returns 0x00000000
T3AF0 002:507.280 JLINK_ReadReg(FPS9)
T3AF0 002:507.285 - 0.004ms returns 0x00000000
T3AF0 002:507.308 JLINK_ReadReg(FPS10)
T3AF0 002:507.314 - 0.006ms returns 0x00000000
T3AF0 002:507.319 JLINK_ReadReg(FPS11)
T3AF0 002:507.324 - 0.004ms returns 0x00000000
T3AF0 002:507.328 JLINK_ReadReg(FPS12)
T3AF0 002:507.333 - 0.004ms returns 0x00000000
T3AF0 002:507.338 JLINK_ReadReg(FPS13)
T3AF0 002:507.342 - 0.004ms returns 0x00000000
T3AF0 002:507.346 JLINK_ReadReg(FPS14)
T3AF0 002:507.351 - 0.004ms returns 0x00000000
T3AF0 002:507.356 JLINK_ReadReg(FPS15)
T3AF0 002:507.360 - 0.004ms returns 0xFFFFFFFF
T3AF0 002:507.365 JLINK_ReadReg(FPS16)
T3AF0 002:507.369 - 0.004ms returns 0x00000000
T3AF0 002:507.374 JLINK_ReadReg(FPS17)
T3AF0 002:507.378 - 0.004ms returns 0x00000000
T3AF0 002:507.383 JLINK_ReadReg(FPS18)
T3AF0 002:507.387 - 0.004ms returns 0x00000000
T3AF0 002:507.392 JLINK_ReadReg(FPS19)
T3AF0 002:507.396 - 0.004ms returns 0x00000000
T3AF0 002:507.401 JLINK_ReadReg(FPS20)
T3AF0 002:507.406 - 0.004ms returns 0x00000000
T3AF0 002:507.410 JLINK_ReadReg(FPS21)
T3AF0 002:507.415 - 0.004ms returns 0x00000000
T3AF0 002:507.419 JLINK_ReadReg(FPS22)
T3AF0 002:507.424 - 0.004ms returns 0x00000000
T3AF0 002:507.428 JLINK_ReadReg(FPS23)
T3AF0 002:507.433 - 0.004ms returns 0x00000000
T3AF0 002:507.438 JLINK_ReadReg(FPS24)
T3AF0 002:507.442 - 0.004ms returns 0x00000000
T3AF0 002:507.447 JLINK_ReadReg(FPS25)
T3AF0 002:507.451 - 0.004ms returns 0x00000000
T3AF0 002:507.456 JLINK_ReadReg(FPS26)
T3AF0 002:507.460 - 0.004ms returns 0x00000000
T3AF0 002:507.465 JLINK_ReadReg(FPS27)
T3AF0 002:507.469 - 0.004ms returns 0x00000000
T3AF0 002:507.474 JLINK_ReadReg(FPS28)
T3AF0 002:507.478 - 0.004ms returns 0x00000000
T3AF0 002:507.483 JLINK_ReadReg(FPS29)
T3AF0 002:507.487 - 0.004ms returns 0x00000000
T3AF0 002:507.492 JLINK_ReadReg(FPS30)
T3AF0 002:507.496 - 0.004ms returns 0x00000000
T3AF0 002:507.501 JLINK_ReadReg(FPS31)
T3AF0 002:507.505 - 0.004ms returns 0xFFFFFFFF
T3AF0 002:507.511 JLINK_WriteMemEx(0xE000ED08, 0x00000004 Bytes, Flags = 0x02000000)
T3AF0 002:507.516   Data:  00 20 00 70
T3AF0 002:507.528   CPU_WriteMem(4 bytes @ 0xE000ED08)
T3AF0 002:508.013 - 0.501ms returns 0x4
T3AF0 002:608.580 JLINK_ReadMemEx(0x200004D8, 0x1 Bytes, Flags = 0x02000000)
T3AF0 002:608.606   CPU_ReadMem(64 bytes @ 0x200004C0)
T3AF0 002:609.665    -- Updating C cache (64 bytes @ 0x200004C0)
T3AF0 002:609.709    -- Read from C cache (1 bytes @ 0x200004D8)
T3AF0 002:609.736   Data:  00
T3AF0 002:609.743 - 1.164ms returns 1 (0x1)
T3AF0 002:609.886 JLINK_ReadMemEx(0x200004D8, 0x1 Bytes, Flags = 0x02000000)
T3AF0 002:609.894    -- Read from C cache (1 bytes @ 0x200004D8)
T3AF0 002:609.900   Data:  00
T3AF0 002:609.906 - 0.020ms returns 1 (0x1)
T3AF0 002:609.921 JLINK_ReadMemEx(0x200004D8, 0x1 Bytes, Flags = 0x02000000)
T3AF0 002:609.926    -- Read from C cache (1 bytes @ 0x200004D8)
T3AF0 002:609.932   Data:  00
T3AF0 002:609.938 - 0.017ms returns 1 (0x1)
T3AF0 002:624.020 JLINK_ReadMemEx(0x200004D8, 0x1 Bytes, Flags = 0x02000000)
T3AF0 002:624.043    -- Read from C cache (1 bytes @ 0x200004D8)
T3AF0 002:624.050   Data:  00
T3AF0 002:624.056 - 0.036ms returns 1 (0x1)
T3AF0 002:624.144 JLINK_ReadMemEx(0x200004D8, 0x1 Bytes, Flags = 0x02000000)
T3AF0 002:624.151    -- Read from C cache (1 bytes @ 0x200004D8)
T3AF0 002:624.157   Data:  00
T3AF0 002:624.163 - 0.018ms returns 1 (0x1)
T3AF0 002:624.176 JLINK_ReadMemEx(0x200004D8, 0x1 Bytes, Flags = 0x02000000)
T3AF0 002:624.182    -- Read from C cache (1 bytes @ 0x200004D8)
T3AF0 002:624.188   Data:  00
T3AF0 002:624.194 - 0.017ms returns 1 (0x1)
T3AF0 002:636.094 JLINK_ReadMemEx(0x2000BE4C, 0x4 Bytes, Flags = 0x02000000)
T3AF0 002:636.113   CPU_ReadMem(64 bytes @ 0x2000BE40)
T3AF0 002:637.113    -- Updating C cache (64 bytes @ 0x2000BE40)
T3AF0 002:637.125    -- Read from C cache (4 bytes @ 0x2000BE4C)
T3AF0 002:637.132   Data:  AA 13 9C 5B
T3AF0 002:637.139 - 1.045ms returns 4 (0x4)
T3AF0 002:637.257 JLINK_ReadMemEx(0x2000BE4C, 0x4 Bytes, Flags = 0x02000000)
T3AF0 002:637.265    -- Read from C cache (4 bytes @ 0x2000BE4C)
T3AF0 002:637.322   Data:  AA 13 9C 5B
T3AF0 002:637.329 - 0.071ms returns 4 (0x4)
T3AF0 002:637.346 JLINK_ReadMemEx(0x2000BE4C, 0x4 Bytes, Flags = 0x02000000)
T3AF0 002:637.352    -- Read from C cache (4 bytes @ 0x2000BE4C)
T3AF0 002:637.359   Data:  AA 13 9C 5B
T3AF0 002:637.365 - 0.019ms returns 4 (0x4)
T3AF0 002:638.230 JLINK_ReadMemEx(0x2000BE54, 0x4 Bytes, Flags = 0x02000000)
T3AF0 002:638.240    -- Read from C cache (4 bytes @ 0x2000BE54)
T3AF0 002:638.247   Data:  EA EC 54 40
T3AF0 002:638.253 - 0.023ms returns 4 (0x4)
T3AF0 002:638.336 JLINK_ReadMemEx(0x2000BE54, 0x4 Bytes, Flags = 0x02000000)
T3AF0 002:638.342    -- Read from C cache (4 bytes @ 0x2000BE54)
T3AF0 002:638.348   Data:  EA EC 54 40
T3AF0 002:638.354 - 0.018ms returns 4 (0x4)
T3AF0 002:638.369 JLINK_ReadMemEx(0x2000BE54, 0x4 Bytes, Flags = 0x02000000)
T3AF0 002:638.374    -- Read from C cache (4 bytes @ 0x2000BE54)
T3AF0 002:638.380   Data:  EA EC 54 40
T3AF0 002:638.386 - 0.017ms returns 4 (0x4)
T3AF0 002:640.229 JLINK_ReadMemEx(0x2000BE50, 0x4 Bytes, Flags = 0x02000000)
T3AF0 002:640.241    -- Read from C cache (4 bytes @ 0x2000BE50)
T3AF0 002:640.247   Data:  EF 7A 01 01
T3AF0 002:640.254 - 0.025ms returns 4 (0x4)
T3AF0 002:640.326 JLINK_ReadMemEx(0x2000BE50, 0x4 Bytes, Flags = 0x02000000)
T3AF0 002:640.332    -- Read from C cache (4 bytes @ 0x2000BE50)
T3AF0 002:640.338   Data:  EF 7A 01 01
T3AF0 002:640.344 - 0.019ms returns 4 (0x4)
T3AF0 002:640.358 JLINK_ReadMemEx(0x2000BE50, 0x4 Bytes, Flags = 0x02000000)
T3AF0 002:640.363    -- Read from C cache (4 bytes @ 0x2000BE50)
T3AF0 002:640.369   Data:  EF 7A 01 01
T3AF0 002:640.375 - 0.017ms returns 4 (0x4)
T3AF0 002:703.928 JLINK_ReadMemEx(0x80000400, 0x1000 Bytes, Flags = 0x02000000)
